(1730892639.316946) can1 709#FF7F0080A3BC
(1730892639.317588) can2 6B0#000012F51D784900
(1730892639.317234) can0 500#0000FD00FF000000
(1730892639.317709) can1 707#FF7F7B0001000000
(1730892639.317307) can0 501#000000000000
(1730892639.317431) can0 703#840002002904
(1730892639.317536) can0 502#A9801F0000
(1730892639.317620) can0 521#0000670301
(1730892639.317773) can1 6B1#
(1730892639.317826) can1 6B4#
(1730892639.317880) can0 514#0B
(1730892639.318021) can0 523#FF7F000000000000
(1730892639.318158) can0 515#0000000000000000
(1730892639.318269) can0 700#1F
(1730892639.318932) can0 512#2B0000004500
(1730892639.319015) can0 513#00000000000000
(1730892639.319351) can0 704#0B00FF0F4704
(1730892639.319719) can1 122#02000100FFFF
(1730892639.319836) can1 545#FE7FFBFEE1FF1100
(1730892639.319855) can2 0C0#000000000100DC05
(1730892639.319914) can1 559#61FFEDFF0A00
(1730892639.320058) can1 553#02DBF7DAFFFF03
(1730892639.321372) can0 705#01008A000200
(1730892639.321407) can2 0AD#FFFF000000000000
(1730892639.321483) can2 0AC#000005005F430000
(1730892639.321635) can2 0AB#0000000000000000
(1730892639.321682) can0 524#03F3FF0000
(1730892639.321720) can2 0AA#0400090200004001
(1730892639.321877) can2 0A8#330046DF05000700
(1730892639.321997) can2 0A7#F812000019002D00
(1730892639.322115) can2 0A6#FFFF010000000000
(1730892639.322269) can2 0A5#410B00000000CE02
(1730892639.322329) can2 0A4#0000000000000000
(1730892639.322479) can2 0A3#E7FD821EE8A1971E
(1730892639.323359) can0 706#200001003704
(1730892639.324903) can1 121#0D00040036FC
(1730892639.325005) can1 122#010001000000
(1730892639.325023) can2 0C0#000000000100DC05
(1730892639.325133) can1 545#FE7FFBFEE1FF1100
(1730892639.325247) can1 559#61FFEDFF0A00
(1730892639.325313) can1 546#1A001A00B77A
(1730892639.325349) can0 707#000001008904
(1730892639.325557) can1 547#B6A7DF1C3E044EFD
(1730892639.325644) can2 6B0#000012F51D784900
(1730892639.325662) can1 548#6F3EFAFF0000
(1730892639.325756) can2 6B5#0301010301010301
(1730892639.325786) can1 549#FFFFFFFFFFFF
(1730892639.325844) can1 135#890824F43501
(1730892639.325874) can2 6B7#0000000204000000
(1730892639.325970) can1 551#50C350C350C3
(1730892639.326006) can2 6B4#83A603842D2981EB
(1730892639.326087) can1 125#86081DF40001
(1730892639.326105) can2 6B3#00BD9400B4001A1D
(1730892639.326234) can1 554#24A866100100
(1730892639.326265) can2 6B2#90001077001A0000
(1730892639.326301) can1 555#0000
(1730892639.326345) can2 6B1#004E001E19190000
(1730892639.326379) can1 171#000000000000
(1730892639.326462) can2 6B6#000000001A190000
(1730892639.326540) can1 557#CE3ACE3ACE3A
(1730892639.326660) can1 175#0000000000000000
(1730892639.326792) can1 558#FFFFFFFFFFFFFFFF
(1730892639.326920) can1 55B#0000504600002823
(1730892639.327034) can1 553#02DBF7DAFFFF03
(1730892639.327193) can1 708#0900FFFF
(1730892639.327304) can1 709#FF7F008016AE
(1730892639.327346) can0 708#A6001D004504
(1730892639.327446) can1 70A#52FF09010B01
(1730892639.327507) can1 70B#21
(1730892639.327814) can1 704#FF7FFF7FFF7FFF7F
(1730892639.327954) can1 705#0000000000000000
(1730892639.327987) can0 500#0000FD00FF000000
(1730892639.328083) can1 706#F3FF0000FF7F
(1730892639.328100) can0 501#000000000000
(1730892639.328196) can0 502#A9801F0000
(1730892639.328214) can1 707#FF7F7B0001000000
(1730892639.328285) can1 6B1#
(1730892639.328339) can0 521#0000660301
(1730892639.328357) can1 6B4#
(1730892639.328418) can0 514#0B
(1730892639.328545) can0 523#FF7F000000000000
(1730892639.328689) can0 515#0000000000000000
(1730892639.329074) can0 700#1F
(1730892639.329139) can0 191#0300008000006401
(1730892639.329308) can0 709#FFFF
(1730892639.329717) can1 122#01000100FEFF
(1730892639.329812) can2 0C0#000000000100DC05
(1730892639.329842) can1 545#FE7FFCFEE1FF1100
(1730892639.329910) can1 559#61FFEDFF0A00
(1730892639.330062) can1 553#02DBF7DAFFFF03
(1730892639.333405) can2 0AD#FFFF000000000000
(1730892639.333488) can2 0AC#0000020063430000
(1730892639.333639) can2 0AB#0000000000000000
(1730892639.333756) can2 0AA#0400090200004001
(1730892639.333871) can2 0A8#330046DF04000200
(1730892639.333995) can2 0A7#F612000015002000
(1730892639.334113) can2 0A6#FDFFFEFF06000000
(1730892639.334251) can2 0A5#410B00000000CE02
(1730892639.334365) can2 0A4#0000000000000000
(1730892639.334480) can2 0A3#E8FD721EE8A1971E
